V1	V(n001)	V(n002)	I(D1)
0.000000000000000e+00	0.000000e+00	0.000000e+00	0.000000e+00
1.000000000000000e-03	1.000000e-03	8.341678e-10	5.561119e-11
2.000000000000000e-03	2.000000e-03	1.705699e-09	1.137132e-10
3.000000000000000e-03	3.000000e-03	2.587197e-09	1.724798e-10
4.000000000000000e-03	4.000000e-03	3.488363e-09	2.325575e-10
5.000000000000000e-03	5.000000e-03	4.409637e-09	2.939758e-10
6.000000000000000e-03	6.000000e-03	5.351466e-09	3.567644e-10
7.000000000000000e-03	7.000000e-03	6.314310e-09	4.209540e-10
8.000000000000000e-03	8.000000e-03	7.298637e-09	4.865758e-10
9.000000000000001e-03	9.000000e-03	8.304927e-09	5.536618e-10
1.000000000000000e-02	1.000000e-02	9.333671e-09	6.222447e-10
1.100000000000000e-02	1.100000e-02	1.038537e-08	6.923578e-10
1.200000000000000e-02	1.200000e-02	1.146053e-08	7.640353e-10
1.300000000000000e-02	1.300000e-02	1.255968e-08	8.373121e-10
1.400000000000000e-02	1.400000e-02	1.368336e-08	9.122239e-10
1.500000000000000e-02	1.500000e-02	1.483211e-08	9.888073e-10
1.600000000000000e-02	1.600000e-02	1.600649e-08	1.067099e-09
1.700000000000000e-02	1.700000e-02	1.720707e-08	1.147138e-09
1.800000000000000e-02	1.800000e-02	1.843445e-08	1.228963e-09
1.900000000000000e-02	1.900000e-02	1.968920e-08	1.312613e-09
2.000000000000000e-02	2.000000e-02	2.097196e-08	1.398131e-09
2.100000000000000e-02	2.100000e-02	2.228333e-08	1.485555e-09
2.200000000000000e-02	2.200000e-02	2.362397e-08	1.574931e-09
2.300000000000000e-02	2.300000e-02	2.499452e-08	1.666301e-09
2.400000000000000e-02	2.400000e-02	2.639565e-08	1.759710e-09
2.500000000000000e-02	2.500000e-02	2.782804e-08	1.855203e-09
2.600000000000000e-02	2.600000e-02	2.929239e-08	1.952826e-09
2.700000000000000e-02	2.700000e-02	3.078942e-08	2.052628e-09
2.800000000000000e-02	2.800000e-02	3.231985e-08	2.154656e-09
2.900000000000000e-02	2.900000e-02	3.388442e-08	2.258961e-09
3.000000000000000e-02	3.000000e-02	3.548391e-08	2.365594e-09
3.100000000000000e-02	3.100000e-02	3.711908e-08	2.474606e-09
3.200000000000000e-02	3.200000e-02	3.879074e-08	2.586050e-09
3.300000000000000e-02	3.300000e-02	4.049970e-08	2.699980e-09
3.400000000000000e-02	3.400000e-02	4.224679e-08	2.816453e-09
3.500000000000000e-02	3.500000e-02	4.403286e-08	2.935524e-09
3.600000000000000e-02	3.600000e-02	4.585879e-08	3.057252e-09
3.700000000000000e-02	3.700000e-02	4.772545e-08	3.181697e-09
3.800000000000000e-02	3.800000e-02	4.963377e-08	3.308918e-09
3.900000000000000e-02	3.900000e-02	5.158466e-08	3.438977e-09
4.000000000000000e-02	4.000000e-02	5.357909e-08	3.571939e-09
4.100000000000000e-02	4.100000e-02	5.561801e-08	3.707867e-09
4.200000000000000e-02	4.200000e-02	5.770243e-08	3.846829e-09
4.300000000000000e-02	4.300000e-02	5.983335e-08	3.988890e-09
4.400000000000000e-02	4.400000e-02	6.201183e-08	4.134122e-09
4.500000000000000e-02	4.500000e-02	6.423891e-08	4.282594e-09
4.600000000000000e-02	4.600000e-02	6.651568e-08	4.434379e-09
4.700000000000000e-02	4.700000e-02	6.884326e-08	4.589551e-09
4.800000000000000e-02	4.800000e-02	7.122276e-08	4.748184e-09
4.900000000000000e-02	4.900000e-02	7.365536e-08	4.910357e-09
5.000000000000000e-02	5.000000e-02	7.614224e-08	5.076149e-09
5.100000000000000e-02	5.100000e-02	7.868461e-08	5.245640e-09
5.200000000000000e-02	5.200000e-02	8.128370e-08	5.418913e-09
5.300000000000000e-02	5.300000e-02	8.394079e-08	5.596053e-09
5.400000000000000e-02	5.400000e-02	8.665716e-08	5.777144e-09
5.500000000000000e-02	5.500000e-02	8.943415e-08	5.962276e-09
5.600000000000000e-02	5.600000e-02	9.227308e-08	6.151539e-09
5.700000000000000e-02	5.700000e-02	9.517537e-08	6.345025e-09
5.800000000000000e-02	5.800000e-02	9.814242e-08	6.542828e-09
5.900000000000000e-02	5.900000e-02	1.011757e-07	6.745045e-09
6.000000000000000e-02	6.000000e-02	1.042766e-07	6.951773e-09
6.100000000000000e-02	6.100000e-02	1.074467e-07	7.163114e-09
6.200000000000000e-02	6.200000e-02	1.106876e-07	7.379171e-09
6.300000000000000e-02	6.300000e-02	1.140007e-07	7.600049e-09
6.400000000000000e-02	6.400000e-02	1.173878e-07	7.825855e-09
6.500000000000000e-02	6.500000e-02	1.208505e-07	8.056698e-09
6.600000000000000e-02	6.600000e-02	1.243904e-07	8.292694e-09
6.700000000000000e-02	6.700000e-02	1.280093e-07	8.533954e-09
6.800000000000000e-02	6.800000e-02	1.317090e-07	8.780598e-09
6.900000000000001e-02	6.900000e-02	1.354912e-07	9.032744e-09
7.000000000000001e-02	7.000000e-02	1.393578e-07	9.290518e-09
7.100000000000001e-02	7.100000e-02	1.433106e-07	9.554042e-09
7.200000000000001e-02	7.200000e-02	1.473517e-07	9.823447e-09
7.300000000000000e-02	7.300000e-02	1.514829e-07	1.009886e-08
7.400000000000000e-02	7.400000e-02	1.557063e-07	1.038042e-08
7.500000000000000e-02	7.500000e-02	1.600240e-07	1.066827e-08
7.600000000000000e-02	7.600000e-02	1.644380e-07	1.096253e-08
7.700000000000000e-02	7.700000e-02	1.689505e-07	1.126336e-08
7.800000000000000e-02	7.800000e-02	1.735636e-07	1.157091e-08
7.900000000000000e-02	7.900000e-02	1.782797e-07	1.188531e-08
8.000000000000000e-02	8.000000e-02	1.831010e-07	1.220673e-08
8.100000000000000e-02	8.100000e-02	1.880299e-07	1.253533e-08
8.200000000000000e-02	8.200000e-02	1.930688e-07	1.287125e-08
8.300000000000000e-02	8.300000e-02	1.982201e-07	1.321467e-08
8.400000000000001e-02	8.400000e-02	2.034863e-07	1.356575e-08
8.500000000000001e-02	8.500000e-02	2.088700e-07	1.392467e-08
8.600000000000001e-02	8.600000e-02	2.143739e-07	1.429159e-08
8.700000000000001e-02	8.700000e-02	2.200006e-07	1.466671e-08
8.799999999999999e-02	8.800000e-02	2.257528e-07	1.505019e-08
8.900000000000000e-02	8.900000e-02	2.316334e-07	1.544222e-08
9.000000000000000e-02	9.000000e-02	2.376451e-07	1.584301e-08
9.100000000000000e-02	9.100000e-02	2.437910e-07	1.625274e-08
9.200000000000000e-02	9.200000e-02	2.500741e-07	1.667161e-08
9.300000000000000e-02	9.300000e-02	2.564973e-07	1.709982e-08
9.400000000000000e-02	9.400000e-02	2.630639e-07	1.753759e-08
9.500000000000000e-02	9.500000e-02	2.697769e-07	1.798513e-08
9.600000000000000e-02	9.600000e-02	2.766398e-07	1.844265e-08
9.700000000000000e-02	9.700000e-02	2.836558e-07	1.891038e-08
9.800000000000000e-02	9.800000e-02	2.908283e-07	1.938855e-08
9.900000000000000e-02	9.900000e-02	2.981608e-07	1.987739e-08
1.000000000000000e-01	1.000000e-01	3.056570e-07	2.037713e-08
1.010000000000000e-01	1.010000e-01	3.133204e-07	2.088803e-08
1.020000000000000e-01	1.020000e-01	3.211548e-07	2.141032e-08
1.030000000000000e-01	1.030000e-01	3.291640e-07	2.194427e-08
1.040000000000000e-01	1.040000e-01	3.373520e-07	2.249013e-08
1.050000000000000e-01	1.050000e-01	3.457226e-07	2.304817e-08
1.060000000000000e-01	1.060000e-01	3.542800e-07	2.361866e-08
1.070000000000000e-01	1.070000e-01	3.630283e-07	2.420188e-08
1.080000000000000e-01	1.080000e-01	3.719718e-07	2.479812e-08
1.090000000000000e-01	1.090000e-01	3.811149e-07	2.540766e-08
1.100000000000000e-01	1.100000e-01	3.904619e-07	2.603080e-08
1.110000000000000e-01	1.110000e-01	4.000176e-07	2.666784e-08
1.120000000000000e-01	1.120000e-01	4.097864e-07	2.731909e-08
1.130000000000000e-01	1.130000e-01	4.197732e-07	2.798488e-08
1.140000000000000e-01	1.140000e-01	4.299828e-07	2.866552e-08
1.150000000000000e-01	1.150000e-01	4.404203e-07	2.936135e-08
1.160000000000000e-01	1.160000e-01	4.510906e-07	3.007270e-08
1.170000000000000e-01	1.170000e-01	4.619990e-07	3.079993e-08
1.180000000000000e-01	1.180000e-01	4.731507e-07	3.154338e-08
1.190000000000000e-01	1.190000e-01	4.845513e-07	3.230342e-08
1.200000000000000e-01	1.200000e-01	4.962063e-07	3.308042e-08
1.210000000000000e-01	1.210000e-01	5.081213e-07	3.387476e-08
1.220000000000000e-01	1.220000e-01	5.203022e-07	3.468681e-08
1.230000000000000e-01	1.230000e-01	5.327549e-07	3.551699e-08
1.240000000000000e-01	1.240000e-01	5.454854e-07	3.636569e-08
1.250000000000000e-01	1.250000e-01	5.584999e-07	3.723333e-08
1.260000000000000e-01	1.260000e-01	5.718048e-07	3.812032e-08
1.270000000000000e-01	1.270000e-01	5.854067e-07	3.902711e-08
1.280000000000000e-01	1.280000e-01	5.993119e-07	3.995413e-08
1.290000000000000e-01	1.290000e-01	6.135274e-07	4.090183e-08
1.300000000000000e-01	1.300000e-01	6.280602e-07	4.187068e-08
1.310000000000000e-01	1.310000e-01	6.429171e-07	4.286115e-08
1.320000000000000e-01	1.320000e-01	6.581056e-07	4.387371e-08
1.330000000000000e-01	1.330000e-01	6.736330e-07	4.490887e-08
1.340000000000000e-01	1.340000e-01	6.895067e-07	4.596712e-08
1.350000000000000e-01	1.350000e-01	7.057347e-07	4.704899e-08
1.360000000000000e-01	1.360000e-01	7.223248e-07	4.815499e-08
1.370000000000000e-01	1.370000e-01	7.392850e-07	4.928567e-08
1.380000000000000e-01	1.380000e-01	7.566236e-07	5.044158e-08
1.390000000000000e-01	1.390000e-01	7.743491e-07	5.162327e-08
1.400000000000000e-01	1.400000e-01	7.924701e-07	5.283134e-08
1.410000000000000e-01	1.410000e-01	8.109954e-07	5.406636e-08
1.420000000000000e-01	1.420000e-01	8.299340e-07	5.532894e-08
1.430000000000000e-01	1.430000e-01	8.492952e-07	5.661968e-08
1.440000000000000e-01	1.440000e-01	8.690884e-07	5.793923e-08
1.450000000000000e-01	1.450000e-01	8.893232e-07	5.928822e-08
1.460000000000000e-01	1.460000e-01	9.100095e-07	6.066730e-08
1.470000000000000e-01	1.470000e-01	9.311573e-07	6.207716e-08
1.480000000000000e-01	1.480000e-01	9.527770e-07	6.351846e-08
1.490000000000000e-01	1.490000e-01	9.748791e-07	6.499194e-08
1.500000000000000e-01	1.500000e-01	9.974742e-07	6.649828e-08
1.510000000000000e-01	1.510000e-01	1.020574e-06	6.803823e-08
1.520000000000000e-01	1.520000e-01	1.044188e-06	6.961255e-08
1.530000000000000e-01	1.530000e-01	1.068330e-06	7.122198e-08
1.540000000000000e-01	1.540000e-01	1.093010e-06	7.286734e-08
1.550000000000000e-01	1.550000e-01	1.118241e-06	7.454939e-08
1.560000000000000e-01	1.560000e-01	1.144035e-06	7.626898e-08
1.570000000000000e-01	1.570000e-01	1.170404e-06	7.802694e-08
1.580000000000000e-01	1.580000e-01	1.197362e-06	7.982411e-08
1.590000000000000e-01	1.590000e-01	1.224921e-06	8.166139e-08
1.600000000000000e-01	1.600000e-01	1.253095e-06	8.353966e-08
1.610000000000000e-01	1.610000e-01	1.281898e-06	8.545983e-08
1.620000000000000e-01	1.620000e-01	1.311343e-06	8.742285e-08
1.630000000000000e-01	1.630000e-01	1.341445e-06	8.942967e-08
1.640000000000000e-01	1.640000e-01	1.372219e-06	9.148125e-08
1.650000000000000e-01	1.650000e-01	1.403679e-06	9.357862e-08
1.660000000000000e-01	1.660000e-01	1.435842e-06	9.572278e-08
1.670000000000000e-01	1.670000e-01	1.468722e-06	9.791478e-08
1.680000000000000e-01	1.680000e-01	1.502335e-06	1.001557e-07
1.690000000000000e-01	1.690000e-01	1.536699e-06	1.024466e-07
1.700000000000000e-01	1.700000e-01	1.571829e-06	1.047886e-07
1.710000000000000e-01	1.710000e-01	1.607743e-06	1.071829e-07
1.720000000000000e-01	1.720000e-01	1.644458e-06	1.096305e-07
1.730000000000000e-01	1.730000e-01	1.681993e-06	1.121328e-07
1.740000000000000e-01	1.740000e-01	1.720364e-06	1.146910e-07
1.750000000000000e-01	1.750000e-01	1.759592e-06	1.173062e-07
1.760000000000000e-01	1.760000e-01	1.799696e-06	1.199797e-07
1.770000000000000e-01	1.770000e-01	1.840694e-06	1.227129e-07
1.780000000000000e-01	1.780000e-01	1.882606e-06	1.255071e-07
1.790000000000000e-01	1.790000e-01	1.925454e-06	1.283636e-07
1.800000000000000e-01	1.800000e-01	1.969258e-06	1.312839e-07
1.810000000000000e-01	1.810000e-01	2.014039e-06	1.342693e-07
1.820000000000000e-01	1.820000e-01	2.059819e-06	1.373213e-07
1.830000000000000e-01	1.830000e-01	2.106621e-06	1.404414e-07
1.840000000000000e-01	1.840000e-01	2.154466e-06	1.436311e-07
1.850000000000000e-01	1.850000e-01	2.203379e-06	1.468919e-07
1.860000000000000e-01	1.860000e-01	2.253384e-06	1.502256e-07
1.870000000000000e-01	1.870000e-01	2.304504e-06	1.536336e-07
1.880000000000000e-01	1.880000e-01	2.356764e-06	1.571176e-07
1.890000000000000e-01	1.890000e-01	2.410191e-06	1.606794e-07
1.900000000000000e-01	1.900000e-01	2.464809e-06	1.643206e-07
1.910000000000000e-01	1.910000e-01	2.520646e-06	1.680431e-07
1.920000000000000e-01	1.920000e-01	2.577729e-06	1.718486e-07
1.930000000000000e-01	1.930000e-01	2.636085e-06	1.757390e-07
1.940000000000000e-01	1.940000e-01	2.695743e-06	1.797162e-07
1.950000000000000e-01	1.950000e-01	2.756733e-06	1.837822e-07
1.960000000000000e-01	1.960000e-01	2.819082e-06	1.879388e-07
1.970000000000000e-01	1.970000e-01	2.882823e-06	1.921882e-07
1.980000000000000e-01	1.980000e-01	2.947986e-06	1.965324e-07
1.990000000000000e-01	1.990000e-01	3.014603e-06	2.009735e-07
2.000000000000000e-01	2.000000e-01	3.082706e-06	2.055137e-07
2.010000000000000e-01	2.010000e-01	3.152328e-06	2.101552e-07
2.020000000000000e-01	2.020000e-01	3.223503e-06	2.149002e-07
2.030000000000000e-01	2.030000e-01	3.296267e-06	2.197511e-07
2.040000000000000e-01	2.040000e-01	3.370653e-06	2.247102e-07
2.050000000000000e-01	2.050000e-01	3.446700e-06	2.297800e-07
2.060000000000000e-01	2.060000e-01	3.524442e-06	2.349628e-07
2.070000000000000e-01	2.070000e-01	3.603919e-06	2.402613e-07
2.080000000000000e-01	2.080000e-01	3.685169e-06	2.456780e-07
2.090000000000000e-01	2.090000e-01	3.768232e-06	2.512155e-07
2.100000000000000e-01	2.100000e-01	3.853148e-06	2.568765e-07
2.110000000000000e-01	2.110000e-01	3.939958e-06	2.626639e-07
2.120000000000000e-01	2.120000e-01	4.028705e-06	2.685803e-07
2.130000000000000e-01	2.130000e-01	4.119432e-06	2.746288e-07
2.140000000000000e-01	2.140000e-01	4.212182e-06	2.808121e-07
2.150000000000000e-01	2.150000e-01	4.307002e-06	2.871334e-07
2.160000000000000e-01	2.160000e-01	4.403937e-06	2.935958e-07
2.170000000000000e-01	2.170000e-01	4.503034e-06	3.002023e-07
2.180000000000000e-01	2.180000e-01	4.604342e-06	3.069561e-07
2.190000000000000e-01	2.190000e-01	4.707910e-06	3.138607e-07
2.200000000000000e-01	2.200000e-01	4.813789e-06	3.209192e-07
2.210000000000000e-01	2.210000e-01	4.922029e-06	3.281353e-07
2.220000000000000e-01	2.220000e-01	5.032684e-06	3.355123e-07
2.230000000000000e-01	2.230000e-01	5.145807e-06	3.430538e-07
2.240000000000000e-01	2.240000e-01	5.261455e-06	3.507636e-07
2.250000000000000e-01	2.250000e-01	5.379681e-06	3.586454e-07
2.260000000000000e-01	2.260000e-01	5.500545e-06	3.667030e-07
2.270000000000000e-01	2.270000e-01	5.624105e-06	3.749404e-07
2.280000000000000e-01	2.280000e-01	5.750422e-06	3.833615e-07
2.290000000000000e-01	2.290000e-01	5.879556e-06	3.919704e-07
2.300000000000000e-01	2.300000e-01	6.011570e-06	4.007714e-07
2.310000000000000e-01	2.310000e-01	6.146530e-06	4.097687e-07
2.320000000000000e-01	2.320000e-01	6.284500e-06	4.189667e-07
2.330000000000000e-01	2.330000e-01	6.425547e-06	4.283698e-07
2.340000000000000e-01	2.340000e-01	6.569741e-06	4.379827e-07
2.350000000000000e-01	2.350000e-01	6.717151e-06	4.478101e-07
2.360000000000000e-01	2.360000e-01	6.867850e-06	4.578567e-07
2.370000000000000e-01	2.370000e-01	7.021909e-06	4.681273e-07
2.380000000000000e-01	2.380000e-01	7.179406e-06	4.786270e-07
2.390000000000000e-01	2.390000e-01	7.340415e-06	4.893610e-07
2.400000000000000e-01	2.400000e-01	7.505015e-06	5.003344e-07
2.410000000000000e-01	2.410000e-01	7.673287e-06	5.115525e-07
2.420000000000000e-01	2.420000e-01	7.845312e-06	5.230208e-07
2.430000000000000e-01	2.430000e-01	8.021174e-06	5.347450e-07
2.440000000000000e-01	2.440000e-01	8.200959e-06	5.467306e-07
2.450000000000000e-01	2.450000e-01	8.384754e-06	5.589836e-07
2.460000000000000e-01	2.460000e-01	8.572648e-06	5.715098e-07
2.470000000000000e-01	2.470000e-01	8.764732e-06	5.843155e-07
2.480000000000000e-01	2.480000e-01	8.961101e-06	5.974068e-07
2.490000000000000e-01	2.490000e-01	9.161850e-06	6.107900e-07
2.500000000000000e-01	2.500000e-01	9.367076e-06	6.244717e-07
2.510000000000000e-01	2.510000e-01	9.576879e-06	6.384586e-07
2.520000000000000e-01	2.520000e-01	9.791362e-06	6.527575e-07
2.530000000000000e-01	2.530000e-01	1.001063e-05	6.673752e-07
2.540000000000000e-01	2.540000e-01	1.023478e-05	6.823190e-07
2.550000000000000e-01	2.550000e-01	1.046394e-05	6.975960e-07
2.560000000000000e-01	2.560000e-01	1.069821e-05	7.132137e-07
2.570000000000000e-01	2.570000e-01	1.093770e-05	7.291797e-07
2.580000000000000e-01	2.580000e-01	1.118253e-05	7.455018e-07
2.590000000000000e-01	2.590000e-01	1.143282e-05	7.621879e-07
2.600000000000000e-01	2.600000e-01	1.168869e-05	7.792461e-07
2.610000000000000e-01	2.610000e-01	1.195027e-05	7.966848e-07
2.620000000000000e-01	2.620000e-01	1.221768e-05	8.145123e-07
2.630000000000000e-01	2.630000e-01	1.249106e-05	8.327374e-07
2.640000000000000e-01	2.640000e-01	1.277053e-05	8.513689e-07
2.650000000000000e-01	2.650000e-01	1.305624e-05	8.704159e-07
2.660000000000000e-01	2.660000e-01	1.334831e-05	8.898876e-07
2.670000000000000e-01	2.670000e-01	1.364690e-05	9.097935e-07
2.680000000000000e-01	2.680000e-01	1.395215e-05	9.301432e-07
2.690000000000000e-01	2.690000e-01	1.426420e-05	9.509468e-07
2.700000000000000e-01	2.700000e-01	1.458321e-05	9.722143e-07
2.710000000000000e-01	2.710000e-01	1.490934e-05	9.939558e-07
2.720000000000000e-01	2.720000e-01	1.524273e-05	1.016182e-06
2.730000000000000e-01	2.730000e-01	1.558356e-05	1.038904e-06
2.740000000000000e-01	2.740000e-01	1.593200e-05	1.062133e-06
2.750000000000000e-01	2.750000e-01	1.628819e-05	1.085879e-06
2.760000000000000e-01	2.760000e-01	1.665233e-05	1.110155e-06
2.770000000000000e-01	2.770000e-01	1.702459e-05	1.134973e-06
2.780000000000000e-01	2.780000e-01	1.740515e-05	1.160343e-06
2.790000000000000e-01	2.790000e-01	1.779419e-05	1.186280e-06
2.800000000000000e-01	2.800000e-01	1.819191e-05	1.212794e-06
2.810000000000000e-01	2.810000e-01	1.859849e-05	1.239899e-06
2.820000000000000e-01	2.820000e-01	1.901414e-05	1.267609e-06
2.830000000000000e-01	2.830000e-01	1.943905e-05	1.295937e-06
2.840000000000000e-01	2.840000e-01	1.987344e-05	1.324896e-06
2.850000000000000e-01	2.850000e-01	2.031751e-05	1.354501e-06
2.860000000000000e-01	2.860000e-01	2.077148e-05	1.384765e-06
2.870000000000000e-01	2.870000e-01	2.123556e-05	1.415704e-06
2.880000000000000e-01	2.880000e-01	2.171000e-05	1.447333e-06
2.890000000000000e-01	2.890000e-01	2.219500e-05	1.479667e-06
2.900000000000000e-01	2.900000e-01	2.269082e-05	1.512722e-06
2.910000000000000e-01	2.910000e-01	2.319769e-05	1.546513e-06
2.920000000000000e-01	2.920000e-01	2.371586e-05	1.581058e-06
2.930000000000000e-01	2.930000e-01	2.424558e-05	1.616372e-06
2.940000000000000e-01	2.940000e-01	2.478710e-05	1.652474e-06
2.950000000000000e-01	2.950000e-01	2.534069e-05	1.689380e-06
2.960000000000000e-01	2.960000e-01	2.590663e-05	1.727108e-06
2.970000000000000e-01	2.970000e-01	2.648517e-05	1.765678e-06
2.980000000000000e-01	2.980000e-01	2.707660e-05	1.805107e-06
2.990000000000000e-01	2.990000e-01	2.768122e-05	1.845415e-06
3.000000000000000e-01	3.000000e-01	2.829931e-05	1.886620e-06
3.010000000000000e-01	3.010000e-01	2.893117e-05	1.928745e-06
3.020000000000000e-01	3.020000e-01	2.957711e-05	1.971807e-06
3.030000000000000e-01	3.030000e-01	3.023745e-05	2.015830e-06
3.040000000000000e-01	3.040000e-01	3.091250e-05	2.060833e-06
3.050000000000000e-01	3.050000e-01	3.160258e-05	2.106839e-06
3.060000000000000e-01	3.060000e-01	3.230805e-05	2.153870e-06
3.070000000000000e-01	3.070000e-01	3.302923e-05	2.201949e-06
3.080000000000000e-01	3.080000e-01	3.376648e-05	2.251099e-06
3.090000000000000e-01	3.090000e-01	3.452015e-05	2.301343e-06
3.100000000000000e-01	3.100000e-01	3.529061e-05	2.352707e-06
3.110000000000000e-01	3.110000e-01	3.607824e-05	2.405216e-06
3.120000000000000e-01	3.120000e-01	3.688341e-05	2.458894e-06
3.130000000000000e-01	3.130000e-01	3.770652e-05	2.513768e-06
3.140000000000000e-01	3.140000e-01	3.854795e-05	2.569864e-06
3.150000000000000e-01	3.150000e-01	3.940814e-05	2.627209e-06
3.160000000000000e-01	3.160000e-01	4.028748e-05	2.685832e-06
3.170000000000000e-01	3.170000e-01	4.118640e-05	2.745760e-06
3.180000000000000e-01	3.180000e-01	4.210534e-05	2.807023e-06
3.190000000000000e-01	3.190000e-01	4.304474e-05	2.869650e-06
3.200000000000000e-01	3.200000e-01	4.400507e-05	2.933671e-06
3.210000000000000e-01	3.210000e-01	4.498678e-05	2.999119e-06
3.220000000000000e-01	3.220000e-01	4.599035e-05	3.066023e-06
3.230000000000000e-01	3.230000e-01	4.701626e-05	3.134418e-06
3.240000000000000e-01	3.240000e-01	4.806502e-05	3.204334e-06
3.250000000000000e-01	3.250000e-01	4.913712e-05	3.275808e-06
3.260000000000000e-01	3.260000e-01	5.023309e-05	3.348872e-06
